T3334 000:021.302   SEGGER J-Link V6.70e Log File
T3334 000:021.620   DLL Compiled: Apr 17 2020 17:55:05
T3334 000:021.636   Logging started @ 2020-09-14 09:02
T3334 000:021.657 JLINK_SetWarnOutHandler(...)
T3334 000:021.675 - 0.025ms
T3334 000:021.698 JLINK_OpenEx(...)
T3334 000:023.886   Firmware: J-Link V10 compiled Jun  9 2020 13:38:07
T3334 000:024.165   Decompressing FW timestamp took 173 us
T3334 000:026.796   Hardware: V10.10
T3334 000:026.843   S/N: 50116470
T3334 000:026.869   OEM: SEGGER
T3334 000:026.896   Feature(s): GDB
T3334 000:029.011   TELNET listener socket opened on port 19021
T3334 000:029.438   WEBSRV Starting webserver
T3334 000:029.789   WEBSRV Webserver running on local port 19080
T3334 000:029.831 - 8.145ms returns "O.K."
T3334 000:029.881 JLINK_GetEmuCaps()
T3334 000:029.905 - 0.036ms returns 0xB9FF7BBF
T3334 000:029.941 JLINK_TIF_GetAvailable(...)
T3334 000:030.127 - 0.222ms
T3334 000:030.180 JLINK_SetErrorOutHandler(...)
T3334 000:030.247 - 0.076ms
T3334 000:030.284 JLINK_ExecCommand("ProjectFile = "C:\Users\nxf48054\Desktop\SDK_2.8.1_EVK-MIMXRT1060\boards\evkmimxrt1060\demo_apps\hello_world_omv\mdk\JLinkSettings.ini"", ...). 
T3334 000:046.562   Ref file found at: C:\Keil_v5\ARM\Segger\JLinkDevices.ref
T3334 000:046.937   XML referenced by ref file: C:\Program Files (x86)\SEGGER\JLink\JLinkDevices.xml
T3334 000:048.749   C:\Program Files (x86)\SEGGER\JLink\JLinkDevices.xml evaluated successfully.
T3334 000:117.651 - 87.429ms returns 0x00
T3334 000:117.839 JLINK_ExecCommand("Device = MIMXRT1062DVL6A", ...). 
T3334 000:120.257   Device "MIMXRT1062XXX6A" selected.
T3334 000:121.393 - 3.546ms returns 0x00
T3334 000:121.438 JLINK_ExecCommand("DisableConnectionTimeout", ...). 
T3334 000:121.474 - 0.017ms returns 0x01
T3334 000:121.501 JLINK_GetHardwareVersion()
T3334 000:121.525 - 0.035ms returns 0x18A88
T3334 000:121.553 JLINK_GetDLLVersion()  returns 67005
T3334 000:121.590 JLINK_GetFirmwareString(...)
T3334 000:121.611 - 0.034ms
T3334 000:121.668 JLINK_GetDLLVersion()  returns 67005
T3334 000:121.711 JLINK_GetCompileDateTime()
T3334 000:121.732 - 0.032ms
T3334 000:121.785 JLINK_GetFirmwareString(...)
T3334 000:121.806 - 0.031ms
T3334 000:121.839 JLINK_GetHardwareVersion()
T3334 000:121.862 - 0.034ms returns 0x18A88
T3334 000:121.924 JLINK_TIF_Select(JLINKARM_TIF_SWD)
T3334 000:122.790 - 0.882ms returns 0x00
T3334 000:122.864 JLINK_SetSpeed(5000)
T3334 000:122.965 - 0.114ms
T3334 000:122.993 JLINK_GetId()
T3334 000:123.314   InitTarget() start
T3334 000:123.342    J-Link Script File: Executing InitTarget()
T3334 000:123.379   InitTarget()
T3334 000:125.910   _TargetHalt: CPU halted
T3334 000:125.953   InitTarget() end
T3334 000:126.589   Found SW-DP with ID 0x0BD11477
T3334 000:128.130   DPIDR: 0x0BD11477
T3334 000:128.172   Scanning AP map to find all available APs
T3334 000:128.556   AP[1]: Stopped AP scan as end of AP map has been reached
T3334 000:128.589   AP[0]: AHB-AP (IDR: 0x04770041)
T3334 000:128.641   Iterating through AP map to find AHB-AP to use
T3334 000:129.113   AP[0]: Core found
T3334 000:129.147   AP[0]: AHB-AP ROM base: 0xE00FD000
T3334 000:129.394   CPUID register: 0x411FC271. Implementer code: 0x41 (ARM)
T3334 000:129.428   Found Cortex-M7 r1p1, Little endian.
T3334 000:230.871    -- Max. mem block: 0x00004540
T3334 000:231.235   CPU_ReadMem(4 bytes @ 0xE000EDF0)
T3334 000:231.589   CPU_ReadMem(4 bytes @ 0xE0002000)
T3334 000:232.029   FPUnit: 8 code (BP) slots and 0 literal slots
T3334 000:232.065   CPU_ReadMem(4 bytes @ 0xE000EDFC)
T3334 000:232.349   CPU_WriteMem(4 bytes @ 0xE000EDFC)
T3334 000:232.661   CPU_ReadMem(4 bytes @ 0xE0001000)
T3334 000:232.975   CPU_WriteMem(4 bytes @ 0xE0001000)
T3334 000:233.375   CPU_ReadMem(4 bytes @ 0xE000ED88)
T3334 000:233.722   CPU_WriteMem(4 bytes @ 0xE000ED88)
T3334 000:234.097   CPU_ReadMem(4 bytes @ 0xE000ED88)
T3334 000:234.456   CPU_WriteMem(4 bytes @ 0xE000ED88)
T3334 000:234.865   CoreSight components:
T3334 000:234.905   ROMTbl[0] @ E00FD000
T3334 000:234.929   CPU_ReadMem(64 bytes @ 0xE00FD000)
T3334 000:235.430   CPU_ReadMem(32 bytes @ 0xE00FEFE0)
T3334 000:235.836   ROMTbl[0][0]: E00FE000, CID: B105100D, PID: 000BB4C8 ROM Table
T3334 000:235.869   ROMTbl[1] @ E00FE000
T3334 000:235.893   CPU_ReadMem(64 bytes @ 0xE00FE000)
T3334 000:236.374   CPU_ReadMem(32 bytes @ 0xE00FFFE0)
T3334 000:236.833   ROMTbl[1][0]: E00FF000, CID: B105100D, PID: 000BB4C7 ROM Table
T3334 000:236.865   ROMTbl[2] @ E00FF000
T3334 000:236.922   CPU_ReadMem(64 bytes @ 0xE00FF000)
T3334 000:237.476   CPU_ReadMem(32 bytes @ 0xE000EFE0)
T3334 000:237.863   ROMTbl[2][0]: E000E000, CID: B105E00D, PID: 000BB00C SCS-M7
T3334 000:237.890   CPU_ReadMem(32 bytes @ 0xE0001FE0)
T3334 000:238.264   ROMTbl[2][1]: E0001000, CID: B105E00D, PID: 000BB002 DWT
T3334 000:238.296   CPU_ReadMem(32 bytes @ 0xE0002FE0)
T3334 000:238.750   ROMTbl[2][2]: E0002000, CID: B105E00D, PID: 000BB00E FPB-M7
T3334 000:238.780   CPU_ReadMem(32 bytes @ 0xE0000FE0)
T3334 000:239.159   ROMTbl[2][3]: E0000000, CID: B105E00D, PID: 000BB001 ITM
T3334 000:239.187   CPU_ReadMem(32 bytes @ 0xE0041FE0)
T3334 000:239.537   ROMTbl[1][1]: E0041000, CID: B105900D, PID: 001BB975 ETM-M7
T3334 000:239.566   CPU_ReadMem(32 bytes @ 0xE0042FE0)
T3334 000:239.900   ROMTbl[1][2]: E0042000, CID: B105900D, PID: 004BB906 CTI
T3334 000:239.929   CPU_ReadMem(32 bytes @ 0xE0040FE0)
T3334 000:240.257   ROMTbl[0][1]: E0040000, CID: B105900D, PID: 000BB9A9 TPIU-M7
T3334 000:240.289   CPU_ReadMem(32 bytes @ 0xE0043FE0)
T3334 000:240.685   ROMTbl[0][2]: E0043000, CID: B105F00D, PID: 001BB101 TSG
T3334 000:240.714   CPU_ReadMem(4 bytes @ 0xE000ED78)
T3334 000:240.986   Cache: Separate I- and D-cache.
T3334 000:241.007   CPU_WriteMem(4 bytes @ 0xE000ED84)
T3334 000:241.370   CPU_ReadMem(4 bytes @ 0xE000ED80)
T3334 000:241.745   I-Cache L1: 32 KB, 512 Sets, 32 Bytes/Line, 2-Way
T3334 000:241.779   CPU_WriteMem(4 bytes @ 0xE000ED84)
T3334 000:242.144   CPU_ReadMem(4 bytes @ 0xE000ED80)
T3334 000:242.481   D-Cache L1: 32 KB, 256 Sets, 32 Bytes/Line, 4-Way
T3334 000:242.769 - 119.788ms   returns 0x0BD11477
T3334 000:242.800 JLINK_GetDLLVersion()  returns 67005
T3334 000:242.862 JLINK_CORE_GetFound()
T3334 000:242.878 - 0.023ms returns 0xE0100FF
T3334 000:242.896 JLINK_GetDebugInfo(0x100 = JLINKARM_ROM_TABLE_ADDR_INDEX)
T3334 000:242.916   Value=0xE00FD000
T3334 000:242.939 - 0.050ms returns 0x00
T3334 000:242.967 JLINK_GetDebugInfo(0x100 = JLINKARM_ROM_TABLE_ADDR_INDEX)
T3334 000:242.984   Value=0xE00FD000
T3334 000:243.007 - 0.047ms returns 0x00
T3334 000:243.025 JLINK_GetDebugInfo(0x101 = JLINKARM_DEBUG_INFO_ETM_ADDR_INDEX)
T3334 000:243.041   Value=0xE0041000
T3334 000:243.064 - 0.048ms returns 0x00
T3334 000:243.096   JLINK_ReadMemEx(0xE0041FD0, 0x0020 Bytes, ..., Flags = 0x02000004)
T3334 000:243.145   CPU_ReadMem(32 bytes @ 0xE0041FD0)
T3334 000:243.962   Data:  04 00 00 00 00 00 00 00 00 00 00 00 00 00 00 00 ...
T3334 000:243.991 - 0.907ms returns 0x20
T3334 000:244.012 JLINK_GetDebugInfo(0x102 = JLINKARM_DEBUG_INFO_MTB_ADDR_INDEX)
T3334 000:244.028   Value=0x00000000
T3334 000:244.051 - 0.046ms returns 0x00
T3334 000:244.069 JLINK_GetDebugInfo(0x103 = JLINKARM_DEBUG_INFO_TPIU_ADDR_INDEX)
T3334 000:244.085   Value=0xE0040000
T3334 000:244.109 - 0.048ms returns 0x00
T3334 000:244.127 JLINK_GetDebugInfo(0x104 = JLINKARM_DEBUG_INFO_ITM_ADDR_INDEX)
T3334 000:244.143   Value=0xE0000000
T3334 000:244.165 - 0.045ms returns 0x00
T3334 000:244.183 JLINK_GetDebugInfo(0x105 = JLINKARM_DEBUG_INFO_DWT_ADDR_INDEX)
T3334 000:244.199   Value=0xE0001000
T3334 000:244.221 - 0.044ms returns 0x00
T3334 000:244.239 JLINK_GetDebugInfo(0x106 = JLINKARM_DEBUG_INFO_FPB_ADDR_INDEX)
T3334 000:244.254   Value=0xE0002000
T3334 000:244.281 - 0.049ms returns 0x00
T3334 000:244.299 JLINK_GetDebugInfo(0x107 = JLINKARM_DEBUG_INFO_NVIC_ADDR_INDEX)
T3334 000:244.338   Value=0xE000E000
T3334 000:244.396 - 0.123ms returns 0x00
T3334 000:244.433 JLINK_GetDebugInfo(0x10C = JLINKARM_DEBUG_INFO_DBG_ADDR_INDEX)
T3334 000:244.449   Value=0xE000EDF0
T3334 000:244.492 - 0.084ms returns 0x00
T3334 000:244.550 JLINK_GetDebugInfo(0x01 = Unknown)
T3334 000:244.606   Value=0x00000001
T3334 000:244.669 - 0.143ms returns 0x00
T3334 000:244.966 JLINK_ReadMemU32(0xE000ED00, 0x0001 Items, ...)
T3334 000:244.992   CPU_ReadMem(4 bytes @ 0xE000ED00)
T3334 000:245.220   Data:  71 C2 1F 41
T3334 000:245.253    - CPUID
T3334 000:245.280 - 0.341ms returns 1
T3334 000:245.322 JLINK_GetDebugInfo(0x10F = JLINKARM_DEBUG_INFO_HAS_CORTEX_M_SECURITY_EXT_INDEX)
T3334 000:245.339   Value=0x00000000
T3334 000:245.361 - 0.047ms returns 0x00
T3334 000:245.384 JLINK_SetResetType(JLINKARM_CM3_RESET_TYPE_CORE)
T3334 000:245.400 - 0.024ms returns JLINKARM_CM3_RESET_TYPE_NORMAL
T3334 000:245.419 JLINK_Reset()
T3334 000:245.490   CPU is running
T3334 000:245.516   CPU_WriteMem(4 bytes @ 0xE000EDF0)
T3334 000:245.844   CPU is running
T3334 000:245.873   CPU_WriteMem(4 bytes @ 0xE000EDFC)
T3334 000:246.129   Reset: Halt core after reset via DEMCR.VC_CORERESET.
T3334 000:246.335   Reset: Reset device via AIRCR.VECTRESET.
T3334 000:246.382   CPU is running
T3334 000:246.406   CPU_WriteMem(4 bytes @ 0xE000ED0C)
T3334 000:246.674   CPU_ReadMem(4 bytes @ 0xE000EDF0)
T3334 000:246.922   CPU_ReadMem(4 bytes @ 0xE000EDF0)
T3334 000:247.141   CPU is running
T3334 000:247.169   CPU_WriteMem(4 bytes @ 0xE000EDF0)
T3334 000:247.419   CPU is running
T3334 000:247.447   CPU_WriteMem(4 bytes @ 0xE000EDFC)
T3334 000:253.619   CPU_ReadMem(4 bytes @ 0xE000EDF0)
T3334 000:255.866   CPU_WriteMem(4 bytes @ 0xE0002000)
T3334 000:256.336   CPU_ReadMem(4 bytes @ 0xE000EDFC)
T3334 000:256.699   CPU_ReadMem(4 bytes @ 0xE0001000)
T3334 000:257.025 - 11.621ms
T3334 000:257.071 JLINK_ReadReg(R15 (PC))
T3334 000:257.091 - 0.028ms returns 0x00202090
T3334 000:257.110 JLINK_ReadReg(XPSR)
T3334 000:257.127 - 0.024ms returns 0x01000000
T3334 000:257.149 JLINK_Halt()
T3334 000:257.164 - 0.023ms returns 0x00
T3334 000:257.184 JLINK_ReadMemU32(0xE000EDF0, 0x0001 Items, ...)
T3334 000:257.204   CPU_ReadMem(4 bytes @ 0xE000EDF0)
T3334 000:257.428   Data:  03 00 03 00
T3334 000:257.456    - DHCSR
T3334 000:257.478 - 0.302ms returns 1
T3334 000:257.499 JLINK_WriteU32(0xE000EDF0, 0xA05F0003)
T3334 000:257.516    - DHCSR
T3334 000:257.581   CPU_WriteMem(4 bytes @ 0xE000EDF0)
T3334 000:257.896 - 0.409ms returns 0
T3334 000:257.922 JLINK_WriteU32(0xE000EDFC, 0x01000000)
T3334 000:257.938    - DEMCR
T3334 000:257.965   CPU_WriteMem(4 bytes @ 0xE000EDFC)
T3334 000:258.218 - 0.308ms returns 0
T3334 000:258.290 JLINK_GetHWStatus(...)
T3334 000:258.450 - 0.172ms returns 0x00
T3334 000:258.497 JLINK_GetNumBPUnits(Type = 0xFFFFFF00)
T3334 000:258.517 - 0.029ms returns 0x08
T3334 000:258.537 JLINK_GetNumBPUnits(Type = 0xF0)
T3334 000:258.552 - 0.022ms returns 0x2000
T3334 000:258.570 JLINK_GetNumWPUnits()
T3334 000:258.585 - 0.022ms returns 0x04
T3334 000:258.618 JLINK_GetSpeed()
T3334 000:258.634 - 0.023ms returns 0x1388
T3334 000:258.662 JLINK_ReadMemU32(0xE000E004, 0x0001 Items, ...)
T3334 000:258.682   CPU_ReadMem(4 bytes @ 0xE000E004)
T3334 000:258.932   Data:  04 00 00 00
T3334 000:258.959 - 0.305ms returns 1
T3334 000:258.979 JLINK_ReadMemU32(0xE000E004, 0x0001 Items, ...)
T3334 000:258.998   CPU_ReadMem(4 bytes @ 0xE000E004)
T3334 000:259.219   Data:  04 00 00 00
T3334 000:259.245 - 0.273ms returns 1
T3334 000:259.265 JLINK_WriteMemEx(0xE0001000, 0x001C Bytes, ..., Flags = 0x02000004)
T3334 000:259.282   Data:  01 00 00 00 00 00 00 00 00 00 00 00 00 00 00 00 ...
T3334 000:260.392   CPU_WriteMem(28 bytes @ 0xE0001000)
T3334 000:260.799 - 1.545ms returns 0x1C
T3334 000:260.837 JLINK_ReadReg(R15 (PC))
T3334 000:260.855 - 0.026ms returns 0x00202090
T3334 000:260.873 JLINK_ReadReg(XPSR)
T3334 000:260.889 - 0.023ms returns 0x01000000
T3334 000:269.201   JLINK_ReadMemEx(0xE0001004, 0x0004 Bytes, ..., Flags = 0x02000000)
T3334 000:269.245   Data:  00 00 00 00
T3334 000:269.269    - DWT_CYCCNT
T3334 000:269.292 - 0.099ms returns 0x04
T3334 000:303.056 JLINK_WriteMemEx(0x20200000, 0x1000 Bytes, ..., Flags = 0x02000000)
T3334 000:303.115   Data:  00 20 00 20 1D 07 20 20 69 07 20 20 51 39 20 20 ...
T3334 000:303.875   CPU_WriteMem(4096 bytes @ 0x20200000)
T3334 000:316.063 - 13.032ms returns 0x1000
T3334 000:316.689 JLINK_WriteMemEx(0x20201000, 0x1000 Bytes, ..., Flags = 0x02000000)
T3334 000:316.715   Data:  46 F6 18 40 C8 F2 00 00 01 21 03 91 01 F0 48 FB ...
T3334 000:316.751   CPU_WriteMem(4096 bytes @ 0x20201000)
T3334 000:328.917 - 12.266ms returns 0x1000
T3334 000:329.485 JLINK_WriteMemEx(0x20202000, 0x1000 Bytes, ..., Flags = 0x02000000)
T3334 000:329.509   Data:  81 42 7E D0 FF E7 0D 20 C0 F2 20 00 04 99 81 42 ...
T3334 000:329.546   CPU_WriteMem(4096 bytes @ 0x20202000)
T3334 000:341.688 - 12.294ms returns 0x1000
T3334 000:343.452 JLINK_WriteMemEx(0x20203000, 0x1000 Bytes, ..., Flags = 0x02000000)
T3334 000:343.535   Data:  10 60 C2 F2 21 00 01 68 40 F6 12 12 C4 F2 02 02 ...
T3334 000:343.652   CPU_WriteMem(4096 bytes @ 0x20203000)
T3334 000:355.834 - 12.413ms returns 0x1000
T3334 000:357.430 JLINK_WriteMemEx(0x20204000, 0x1000 Bytes, ..., Flags = 0x02000000)
T3334 000:357.467   Data:  06 92 07 98 00 28 01 D0 FF E7 0B E0 48 F2 68 40 ...
T3334 000:357.507   CPU_WriteMem(4096 bytes @ 0x20204000)
T3334 000:369.718 - 12.334ms returns 0x1000
T3334 000:371.250 JLINK_WriteMemEx(0x20205000, 0x1000 Bytes, ..., Flags = 0x02000000)
T3334 000:371.344   Data:  C2 F2 21 01 40 F2 19 32 00 F0 1A FE 04 98 00 28 ...
T3334 000:371.393   CPU_WriteMem(4096 bytes @ 0x20205000)
T3334 000:383.574 - 12.355ms returns 0x1000
T3334 000:385.438 JLINK_WriteMemEx(0x20206000, 0x1000 Bytes, ..., Flags = 0x02000000)
T3334 000:385.465   Data:  B4 EE 41 0A F1 EE 10 FA 05 DD FF E7 9D ED 1B 0A ...
T3334 000:385.541   CPU_WriteMem(4096 bytes @ 0x20206000)
T3334 000:397.809 - 12.400ms returns 0x1000
T3334 000:398.490 JLINK_WriteMemEx(0x20207000, 0x1000 Bytes, ..., Flags = 0x02000000)
T3334 000:398.518   Data:  48 F2 9E 71 C2 F2 21 01 4F F4 F2 72 FE F7 18 FE ...
T3334 000:398.552   CPU_WriteMem(4096 bytes @ 0x20207000)
T3334 000:410.776 - 12.314ms returns 0x1000
T3334 000:411.379 JLINK_WriteMemEx(0x20208000, 0x1000 Bytes, ..., Flags = 0x02000000)
T3334 000:411.403   Data:  71 E2 6B 98 00 68 69 90 6B 98 80 68 68 90 69 98 ...
T3334 000:411.439   CPU_WriteMem(4096 bytes @ 0x20208000)
T3334 000:423.541 - 12.230ms returns 0x1000
T3334 000:424.223 JLINK_WriteMemEx(0x20209000, 0x1000 Bytes, ..., Flags = 0x02000000)
T3334 000:424.246   Data:  0C 90 03 D0 FF E7 2E 98 0B 90 06 E0 3D 98 00 68 ...
T3334 000:424.281   CPU_WriteMem(4096 bytes @ 0x20209000)
T3334 000:436.512 - 12.326ms returns 0x1000
T3334 000:437.278 JLINK_WriteMemEx(0x2020A000, 0x1000 Bytes, ..., Flags = 0x02000000)
T3334 000:437.313   Data:  08 44 CD F8 84 0D FF E7 DD F8 8C 0C 01 30 CD F8 ...
T3334 000:437.349   CPU_WriteMem(4096 bytes @ 0x2020A000)
T3334 000:449.505 - 12.255ms returns 0x1000
T3334 000:450.077 JLINK_WriteMemEx(0x2020B000, 0x1000 Bytes, ..., Flags = 0x02000000)
T3334 000:450.102   Data:  88 19 CD F8 8C 09 DD F8 30 0B 00 FB 00 F0 DD F8 ...
T3334 000:450.137   CPU_WriteMem(4096 bytes @ 0x2020B000)
T3334 000:462.145 - 12.138ms returns 0x1000
T3334 000:462.854 JLINK_WriteMemEx(0x2020C000, 0x1000 Bytes, ..., Flags = 0x02000000)
T3334 000:462.879   Data:  98 05 01 30 CD F8 48 05 DD F8 4C 05 DD F8 48 15 ...
T3334 000:462.916   CPU_WriteMem(4096 bytes @ 0x2020C000)
T3334 000:475.128 - 12.306ms returns 0x1000
T3334 000:475.784 JLINK_WriteMemEx(0x2020D000, 0x1000 Bytes, ..., Flags = 0x02000000)
T3334 000:475.815   Data:  88 42 03 DA FF E7 74 98 0B 90 02 E0 73 98 0B 90 ...
T3334 000:475.849   CPU_WriteMem(4096 bytes @ 0x2020D000)
T3334 000:487.952 - 12.197ms returns 0x1000
T3334 000:488.996 JLINK_WriteMemEx(0x2020E000, 0x1000 Bytes, ..., Flags = 0x02000000)
T3334 000:489.088   Data:  C0 0A 9D ED 0D 1A 20 EE 01 0A F8 F7 8D FC 19 99 ...
T3334 000:489.149   CPU_WriteMem(4096 bytes @ 0x2020E000)
T3334 000:501.324 - 12.369ms returns 0x1000
T3334 000:501.912 JLINK_WriteMemEx(0x2020F000, 0x1000 Bytes, ..., Flags = 0x02000000)
T3334 000:502.028   Data:  80 BD 00 00 00 00 00 00 81 B0 00 90 00 98 00 68 ...
T3334 000:502.100   CPU_WriteMem(4096 bytes @ 0x2020F000)
T3334 000:514.172 - 12.283ms returns 0x1000
T3334 000:514.904 JLINK_WriteMemEx(0x20210000, 0x1000 Bytes, ..., Flags = 0x02000000)
T3334 000:514.930   Data:  47 F6 F9 41 C2 F2 20 01 81 67 00 98 44 F2 91 01 ...
T3334 000:514.986   CPU_WriteMem(4096 bytes @ 0x20210000)
T3334 000:527.094 - 12.260ms returns 0x1000
T3334 000:528.046 JLINK_WriteMemEx(0x20211000, 0x1000 Bytes, ..., Flags = 0x02000000)
T3334 000:528.101   Data:  DC 50 C2 F2 21 00 00 68 00 6D 00 28 0D D0 FF E7 ...
T3334 000:528.159   CPU_WriteMem(4096 bytes @ 0x20211000)
T3334 000:540.343 - 12.366ms returns 0x1000
T3334 000:540.953 JLINK_WriteMemEx(0x20212000, 0x1000 Bytes, ..., Flags = 0x02000000)
T3334 000:540.980   Data:  D1 71 48 43 11 99 90 FB F1 F0 12 99 90 FB F1 F0 ...
T3334 000:541.016   CPU_WriteMem(4096 bytes @ 0x20212000)
T3334 000:553.036 - 12.102ms returns 0x1000
T3334 000:553.673 JLINK_WriteMemEx(0x20213000, 0x1000 Bytes, ..., Flags = 0x02000000)
T3334 000:553.718   Data:  9F FC B7 EE C0 1A 9D ED 06 2B 22 EE 01 1B B7 EE ...
T3334 000:553.811   CPU_WriteMem(4096 bytes @ 0x20213000)
T3334 000:566.051 - 12.401ms returns 0x1000
T3334 000:566.654 JLINK_WriteMemEx(0x20214000, 0x1000 Bytes, ..., Flags = 0x02000000)
T3334 000:566.677   Data:  F2 F7 0E F9 00 99 08 43 00 90 02 98 00 28 07 D1 ...
T3334 000:566.712   CPU_WriteMem(4096 bytes @ 0x20214000)
T3334 000:578.877 - 12.253ms returns 0x1000
T3334 000:579.434 JLINK_WriteMemEx(0x20215000, 0x1000 Bytes, ..., Flags = 0x02000000)
T3334 000:579.458   Data:  B3 45 08 DC 00 2C A8 BF 9D ED 26 0B DE DA 07 E0 ...
T3334 000:579.494   CPU_WriteMem(4096 bytes @ 0x20215000)
T3334 000:591.779 - 12.440ms returns 0x1000
T3334 000:592.488 JLINK_WriteMemEx(0x20216000, 0x1000 Bytes, ..., Flags = 0x02000000)
T3334 000:592.513   Data:  09 F1 07 01 21 F0 07 02 F2 E8 02 C1 91 46 05 E0 ...
T3334 000:592.548   CPU_WriteMem(4096 bytes @ 0x20216000)
T3334 000:604.700 - 12.289ms returns 0x1000
T3334 000:605.321 JLINK_WriteMemEx(0x20217000, 0x1000 Bytes, ..., Flags = 0x02000000)
T3334 000:605.348   Data:  10 10 10 10 08 00 00 00 08 00 00 00 0A 00 00 00 ...
T3334 000:605.384   CPU_WriteMem(4096 bytes @ 0x20217000)
T3334 000:617.547 - 12.248ms returns 0x1000
T3334 000:618.095 JLINK_WriteMemEx(0x20218000, 0x0E98 Bytes, ..., Flags = 0x02000000)
T3334 000:618.141   Data:  6C 97 2E BF 2B 4C 2B BF 7C F3 27 BF C1 8D 24 BF ...
T3334 000:618.233   CPU_WriteMem(3736 bytes @ 0x20218000)
T3334 000:629.422 - 11.351ms returns 0xE98
T3334 000:685.851 JLINK_SetResetType(JLINKARM_CM3_RESET_TYPE_CORE)
T3334 000:685.915 - 0.089ms returns JLINKARM_CM3_RESET_TYPE_CORE
T3334 000:685.968 JLINK_Reset()
T3334 000:686.033   CPU_WriteMem(4 bytes @ 0xE000EDF0)
T3334 000:686.405   CPU_WriteMem(4 bytes @ 0xE000EDFC)
T3334 000:686.766   Reset: Halt core after reset via DEMCR.VC_CORERESET.
T3334 000:687.059   Reset: Reset device via AIRCR.VECTRESET.
T3334 000:687.094   CPU_WriteMem(4 bytes @ 0xE000ED0C)
T3334 000:687.445   CPU_ReadMem(4 bytes @ 0xE000EDF0)
T3334 000:687.752   CPU_ReadMem(4 bytes @ 0xE000EDF0)
T3334 000:688.140   CPU_WriteMem(4 bytes @ 0xE000EDF0)
T3334 000:688.430   CPU_WriteMem(4 bytes @ 0xE000EDFC)
T3334 000:693.962   CPU_ReadMem(4 bytes @ 0xE000EDF0)
T3334 000:695.986   CPU_WriteMem(4 bytes @ 0xE0002000)
T3334 000:696.307   CPU_ReadMem(4 bytes @ 0xE000EDFC)
T3334 000:696.627   CPU_ReadMem(4 bytes @ 0xE0001000)
T3334 000:696.947 - 11.015ms
T3334 000:697.319 JLINK_ReadReg(R15 (PC))
T3334 000:697.376 - 0.083ms returns 0x00202090
T3334 000:697.413 JLINK_ReadReg(XPSR)
T3334 000:697.430 - 0.025ms returns 0x01000000
T3334 000:697.927   JLINK_ReadMemEx(0x00202090, 0x003C Bytes, ..., Flags = 0x02000000)
T3334 000:697.984   CPU_ReadMem(60 bytes @ 0x00202090)
T3334 000:698.406   Data:  72 B6 13 48 80 47 13 48 13 49 01 60 13 48 80 47 ...
T3334 000:698.437 - 0.519ms returns 0x3C
T3334 000:698.459   JLINK_ReadMemEx(0x00202090, 0x0002 Bytes, ..., Flags = 0x02000000)
T3334 000:698.545   CPU_ReadMem(2 bytes @ 0x00202090)
T3334 000:698.787   Data:  72 B6
T3334 000:698.818 - 0.367ms returns 0x02
T3334 000:698.988   JLINK_ReadMemEx(0x00202092, 0x0002 Bytes, ..., Flags = 0x02000000)
T3334 000:699.034   CPU_ReadMem(2 bytes @ 0x00202092)
T3334 000:699.275   Data:  13 48
T3334 000:699.303 - 0.323ms returns 0x02
T3334 000:699.984   JLINK_ReadMemEx(0x00202092, 0x0002 Bytes, ..., Flags = 0x02000000)
T3334 000:700.035   CPU_ReadMem(2 bytes @ 0x00202092)
T3334 000:700.277   Data:  13 48
T3334 000:700.305 - 0.329ms returns 0x02
T3334 000:700.326   JLINK_ReadMemEx(0x00202094, 0x003C Bytes, ..., Flags = 0x02000000)
T3334 000:700.353   CPU_ReadMem(60 bytes @ 0x00202094)
T3334 000:700.772   Data:  80 47 13 48 13 49 01 60 13 48 80 47 13 48 01 68 ...
T3334 000:700.800 - 0.481ms returns 0x3C
T3334 000:700.820   JLINK_ReadMemEx(0x00202094, 0x0002 Bytes, ..., Flags = 0x02000000)
T3334 000:700.867   CPU_ReadMem(2 bytes @ 0x00202094)
T3334 000:701.193   Data:  80 47
T3334 000:701.220 - 0.408ms returns 0x02
T3334 000:701.255   JLINK_ReadMemEx(0x00202094, 0x003C Bytes, ..., Flags = 0x02000000)
T3334 000:701.282   CPU_ReadMem(60 bytes @ 0x00202094)
T3334 000:701.753   Data:  80 47 13 48 13 49 01 60 13 48 80 47 13 48 01 68 ...
T3334 000:701.781 - 0.533ms returns 0x3C
T3334 000:701.802   JLINK_ReadMemEx(0x00202094, 0x0002 Bytes, ..., Flags = 0x02000000)
T3334 000:701.834   CPU_ReadMem(2 bytes @ 0x00202094)
T3334 000:702.126   Data:  80 47
T3334 000:702.155 - 0.360ms returns 0x02
T3334 000:702.177   JLINK_ReadMemEx(0x00202096, 0x0002 Bytes, ..., Flags = 0x02000000)
T3334 000:702.203   CPU_ReadMem(2 bytes @ 0x00202096)
T3334 000:702.477   Data:  13 48
T3334 000:702.511 - 0.343ms returns 0x02
T3334 000:702.550   JLINK_ReadMemEx(0x00202096, 0x0002 Bytes, ..., Flags = 0x02000000)
T3334 000:702.643   CPU_ReadMem(2 bytes @ 0x00202096)
T3334 000:702.908   Data:  13 48
T3334 000:702.936 - 0.394ms returns 0x02
T3334 000:702.959   JLINK_ReadMemEx(0x00202098, 0x003C Bytes, ..., Flags = 0x02000000)
T3334 000:702.986   CPU_ReadMem(60 bytes @ 0x00202098)
T3334 000:703.405   Data:  13 49 01 60 13 48 80 47 13 48 01 68 41 F0 10 01 ...
T3334 000:703.433 - 0.482ms returns 0x3C
T3334 000:703.454   JLINK_ReadMemEx(0x00202098, 0x0002 Bytes, ..., Flags = 0x02000000)
T3334 000:703.481   CPU_ReadMem(2 bytes @ 0x00202098)
T3334 000:703.751   Data:  13 49
T3334 000:703.780 - 0.334ms returns 0x02
T3334 000:703.856   JLINK_ReadMemEx(0x00202098, 0x003C Bytes, ..., Flags = 0x02000000)
T3334 000:703.902   CPU_ReadMem(60 bytes @ 0x00202098)
T3334 000:704.346   Data:  13 49 01 60 13 48 80 47 13 48 01 68 41 F0 10 01 ...
T3334 000:704.374 - 0.526ms returns 0x3C
T3334 000:704.395   JLINK_ReadMemEx(0x00202098, 0x0002 Bytes, ..., Flags = 0x02000000)
T3334 000:704.421   CPU_ReadMem(2 bytes @ 0x00202098)
T3334 000:704.719   Data:  13 49
T3334 000:704.747 - 0.359ms returns 0x02
T3334 000:704.768   JLINK_ReadMemEx(0x0020209A, 0x0002 Bytes, ..., Flags = 0x02000000)
T3334 000:704.794   CPU_ReadMem(2 bytes @ 0x0020209A)
T3334 000:705.166   Data:  01 60
T3334 000:705.201 - 0.442ms returns 0x02
T3334 000:705.269   JLINK_ReadMemEx(0x0020209A, 0x0002 Bytes, ..., Flags = 0x02000000)
T3334 000:705.319   CPU_ReadMem(2 bytes @ 0x0020209A)
T3334 000:705.589   Data:  01 60
T3334 000:705.637 - 0.376ms returns 0x02
T3334 000:705.663   JLINK_ReadMemEx(0x0020209C, 0x003C Bytes, ..., Flags = 0x02000000)
T3334 000:705.691   CPU_ReadMem(60 bytes @ 0x0020209C)
T3334 000:706.174   Data:  13 48 80 47 13 48 01 68 41 F0 10 01 01 60 62 B6 ...
T3334 000:706.204 - 0.549ms returns 0x3C
T3334 000:706.226   JLINK_ReadMemEx(0x0020209C, 0x0002 Bytes, ..., Flags = 0x02000000)
T3334 000:706.253   CPU_ReadMem(2 bytes @ 0x0020209C)
T3334 000:706.567   Data:  13 48
T3334 000:706.597 - 0.379ms returns 0x02
T3334 000:706.639   JLINK_ReadMemEx(0x0020209C, 0x003C Bytes, ..., Flags = 0x02000000)
T3334 000:706.667   CPU_ReadMem(60 bytes @ 0x0020209C)
T3334 000:707.170   Data:  13 48 80 47 13 48 01 68 41 F0 10 01 01 60 62 B6 ...
T3334 000:707.203 - 0.572ms returns 0x3C
T3334 000:707.224   JLINK_ReadMemEx(0x0020209C, 0x0002 Bytes, ..., Flags = 0x02000000)
T3334 000:707.251   CPU_ReadMem(2 bytes @ 0x0020209C)
T3334 000:707.542   Data:  13 48
T3334 000:707.569 - 0.352ms returns 0x02
T3334 000:707.591   JLINK_ReadMemEx(0x0020209E, 0x0002 Bytes, ..., Flags = 0x02000000)
T3334 000:707.617   CPU_ReadMem(2 bytes @ 0x0020209E)
T3334 000:707.940   Data:  80 47
T3334 000:707.971 - 0.388ms returns 0x02
T3334 000:708.008   JLINK_ReadMemEx(0x0020209E, 0x0002 Bytes, ..., Flags = 0x02000000)
T3334 000:708.037   CPU_ReadMem(2 bytes @ 0x0020209E)
T3334 000:708.371   Data:  80 47
T3334 000:708.399 - 0.398ms returns 0x02
T3334 000:708.420   JLINK_ReadMemEx(0x002020A0, 0x003C Bytes, ..., Flags = 0x02000000)
T3334 000:708.446   CPU_ReadMem(60 bytes @ 0x002020A0)
T3334 000:708.958   Data:  13 48 01 68 41 F0 10 01 01 60 62 B6 11 48 00 47 ...
T3334 000:708.985 - 0.572ms returns 0x3C
T3334 000:709.005   JLINK_ReadMemEx(0x002020A0, 0x0002 Bytes, ..., Flags = 0x02000000)
T3334 000:709.033   CPU_ReadMem(2 bytes @ 0x002020A0)
T3334 000:709.342   Data:  13 48
T3334 000:709.369 - 0.371ms returns 0x02
T3334 000:709.402   JLINK_ReadMemEx(0x002020A0, 0x003C Bytes, ..., Flags = 0x02000000)
T3334 000:709.429   CPU_ReadMem(60 bytes @ 0x002020A0)
T3334 000:709.897   Data:  13 48 01 68 41 F0 10 01 01 60 62 B6 11 48 00 47 ...
T3334 000:709.962 - 0.568ms returns 0x3C
T3334 000:709.983   JLINK_ReadMemEx(0x002020A0, 0x0002 Bytes, ..., Flags = 0x02000000)
T3334 000:710.009   CPU_ReadMem(2 bytes @ 0x002020A0)
T3334 000:710.273   Data:  13 48
T3334 000:710.302 - 0.326ms returns 0x02
T3334 000:710.323   JLINK_ReadMemEx(0x002020A2, 0x0002 Bytes, ..., Flags = 0x02000000)
T3334 000:710.349   CPU_ReadMem(2 bytes @ 0x002020A2)
T3334 000:710.646   Data:  01 68
T3334 000:710.674 - 0.359ms returns 0x02
T3334 003:508.155 JLINK_ReadReg(R0)
T3334 003:508.640 - 0.536ms returns 0x00000000
T3334 003:508.717 JLINK_ReadReg(R1)
T3334 003:508.745 - 0.036ms returns 0x00000000
T3334 003:508.782 JLINK_ReadReg(R2)
T3334 003:508.822 - 0.048ms returns 0x00000000
T3334 003:508.842 JLINK_ReadReg(R3)
T3334 003:508.859 - 0.024ms returns 0x00000000
T3334 003:508.878 JLINK_ReadReg(R4)
T3334 003:508.894 - 0.024ms returns 0x00000000
T3334 003:508.928 JLINK_ReadReg(R5)
T3334 003:508.944 - 0.023ms returns 0x00000000
T3334 003:508.963 JLINK_ReadReg(R6)
T3334 003:508.979 - 0.023ms returns 0x00000000
T3334 003:508.997 JLINK_ReadReg(R7)
T3334 003:509.013 - 0.023ms returns 0x00000000
T3334 003:509.031 JLINK_ReadReg(R8)
T3334 003:509.047 - 0.023ms returns 0x00000000
T3334 003:509.065 JLINK_ReadReg(R9)
T3334 003:509.081 - 0.024ms returns 0x00000000
T3334 003:509.101 JLINK_ReadReg(R10)
T3334 003:509.117 - 0.023ms returns 0x00000000
T3334 003:509.135 JLINK_ReadReg(R11)
T3334 003:509.172 - 0.045ms returns 0x00000000
T3334 003:509.209 JLINK_ReadReg(R12)
T3334 003:509.225 - 0.024ms returns 0x00000000
T3334 003:509.244 JLINK_ReadReg(R13 (SP))
T3334 003:509.261 - 0.024ms returns 0x20201000
T3334 003:509.296 JLINK_ReadReg(R14)
T3334 003:509.311 - 0.023ms returns 0xFFFFFFFF
T3334 003:509.330 JLINK_ReadReg(R15 (PC))
T3334 003:509.347 - 0.024ms returns 0x00202090
T3334 003:509.366 JLINK_ReadReg(XPSR)
T3334 003:509.382 - 0.023ms returns 0x01000000
T3334 003:509.400 JLINK_ReadReg(MSP)
T3334 003:509.416 - 0.023ms returns 0x20201000
T3334 003:509.434 JLINK_ReadReg(PSP)
T3334 003:509.450 - 0.023ms returns 0x00000000
T3334 003:509.468 JLINK_ReadReg(CFBP)
T3334 003:509.484 - 0.023ms returns 0x00000000
T3334 003:509.502 JLINK_ReadReg(FPSCR)
T3334 003:512.033 - 2.544ms returns 0x00000000
T3334 003:512.060 JLINK_ReadReg(FPS0)
T3334 003:512.078 - 0.025ms returns 0x00000000
T3334 003:512.096 JLINK_ReadReg(FPS1)
T3334 003:512.112 - 0.023ms returns 0x00000000
T3334 003:512.148 JLINK_ReadReg(FPS2)
T3334 003:512.164 - 0.023ms returns 0x00000000
T3334 003:512.182 JLINK_ReadReg(FPS3)
T3334 003:512.198 - 0.023ms returns 0x00000000
T3334 003:512.216 JLINK_ReadReg(FPS4)
T3334 003:512.238 - 0.030ms returns 0x00000000
T3334 003:512.258 JLINK_ReadReg(FPS5)
T3334 003:512.274 - 0.023ms returns 0x00000000
T3334 003:512.293 JLINK_ReadReg(FPS6)
T3334 003:512.308 - 0.023ms returns 0x00000000
T3334 003:512.327 JLINK_ReadReg(FPS7)
T3334 003:512.343 - 0.023ms returns 0x00000000
T3334 003:512.361 JLINK_ReadReg(FPS8)
T3334 003:512.377 - 0.023ms returns 0x00000000
T3334 003:512.395 JLINK_ReadReg(FPS9)
T3334 003:512.433 - 0.046ms returns 0x00000000
T3334 003:512.469 JLINK_ReadReg(FPS10)
T3334 003:512.486 - 0.024ms returns 0x00000000
T3334 003:512.504 JLINK_ReadReg(FPS11)
T3334 003:512.520 - 0.024ms returns 0x00000000
T3334 003:512.539 JLINK_ReadReg(FPS12)
T3334 003:512.580 - 0.066ms returns 0x00000000
T3334 003:512.640 JLINK_ReadReg(FPS13)
T3334 003:512.669 - 0.057ms returns 0x00000000
T3334 003:512.729 JLINK_ReadReg(FPS14)
T3334 003:512.764 - 0.043ms returns 0x00000000
T3334 003:512.804 JLINK_ReadReg(FPS15)
T3334 003:512.839 - 0.063ms returns 0xFFFFFFFF
T3334 003:512.879 JLINK_ReadReg(FPS16)
T3334 003:512.914 - 0.063ms returns 0x00000000
T3334 003:512.954 JLINK_ReadReg(FPS17)
T3334 003:513.010 - 0.064ms returns 0x00000000
T3334 003:513.047 JLINK_ReadReg(FPS18)
T3334 003:513.063 - 0.023ms returns 0x00000000
T3334 003:513.081 JLINK_ReadReg(FPS19)
T3334 003:513.097 - 0.023ms returns 0x00000000
T3334 003:513.116 JLINK_ReadReg(FPS20)
T3334 003:513.132 - 0.023ms returns 0x00000000
T3334 003:513.150 JLINK_ReadReg(FPS21)
T3334 003:513.166 - 0.023ms returns 0x00000000
T3334 003:513.184 JLINK_ReadReg(FPS22)
T3334 003:513.201 - 0.025ms returns 0x00000000
T3334 003:513.220 JLINK_ReadReg(FPS23)
T3334 003:513.236 - 0.023ms returns 0x00000000
T3334 003:513.254 JLINK_ReadReg(FPS24)
T3334 003:513.270 - 0.023ms returns 0x00000000
T3334 003:513.288 JLINK_ReadReg(FPS25)
T3334 003:513.344 - 0.063ms returns 0x00000000
T3334 003:513.362 JLINK_ReadReg(FPS26)
T3334 003:513.378 - 0.023ms returns 0x00000000
T3334 003:513.396 JLINK_ReadReg(FPS27)
T3334 003:513.412 - 0.023ms returns 0x00000000
T3334 003:513.430 JLINK_ReadReg(FPS28)
T3334 003:513.462 - 0.038ms returns 0x00000000
T3334 003:513.479 JLINK_ReadReg(FPS29)
T3334 003:513.495 - 0.023ms returns 0x00000000
T3334 003:513.513 JLINK_ReadReg(FPS30)
T3334 003:513.528 - 0.023ms returns 0x00000000
T3334 003:513.546 JLINK_ReadReg(FPS31)
T3334 003:513.561 - 0.023ms returns 0xFFFFFFFF
T3334 003:517.916   JLINK_ReadMemEx(0x400AC038, 0x0004 Bytes, ..., Flags = 0x02000000)
T3334 003:517.978   CPU_ReadMem(4 bytes @ 0x400AC038)
T3334 003:518.255   Data:  00 00 AA 00
T3334 003:518.300 - 0.392ms returns 0x04
T3334 003:518.407 JLINK_WriteMemEx(0x400AC038, 0x0004 Bytes, ..., Flags = 0x02000000)
T3334 003:518.425   Data:  AA 00 AA 00
T3334 003:518.454   CPU_WriteMem(4 bytes @ 0x400AC038)
T3334 003:518.772 - 0.377ms returns 0x04
T3334 003:518.800 JLINK_WriteMemEx(0x400AC044, 0x0004 Bytes, ..., Flags = 0x02000000)
T3334 003:518.832   Data:  55 55 55 95
T3334 003:518.860   CPU_WriteMem(4 bytes @ 0x400AC044)
T3334 003:519.134 - 0.367ms returns 0x04
T3334 003:519.188   JLINK_ReadMemEx(0x400AC040, 0x0004 Bytes, ..., Flags = 0x02000000)
T3334 003:519.232   CPU_ReadMem(4 bytes @ 0x400AC040)
T3334 003:519.515   Data:  03 00 20 00
T3334 003:519.551 - 0.374ms returns 0x04
T3334 003:519.580 JLINK_WriteMemEx(0x400AC040, 0x0004 Bytes, ..., Flags = 0x02000000)
T3334 003:519.599   Data:  07 00 20 00
T3334 003:519.635   CPU_WriteMem(4 bytes @ 0x400AC040)
T3334 003:519.886 - 0.336ms returns 0x04
T3334 003:571.123 JLINK_WriteMemEx(0x20200000, 0x1000 Bytes, ..., Flags = 0x02000000)
T3334 003:571.167   Data:  00 20 00 20 1D 07 20 20 69 07 20 20 51 39 20 20 ...
T3334 003:571.210   CPU_WriteMem(4096 bytes @ 0x20200000)
T3334 003:583.355 - 12.269ms returns 0x1000
T3334 003:583.921 JLINK_WriteMemEx(0x20201000, 0x1000 Bytes, ..., Flags = 0x02000000)
T3334 003:583.965   Data:  46 F6 18 40 C8 F2 00 00 01 21 03 91 01 F0 48 FB ...
T3334 003:584.060   CPU_WriteMem(4096 bytes @ 0x20201000)
T3334 003:596.328 - 12.437ms returns 0x1000
T3334 003:596.908 JLINK_WriteMemEx(0x20202000, 0x1000 Bytes, ..., Flags = 0x02000000)
T3334 003:596.934   Data:  81 42 7E D0 FF E7 0D 20 C0 F2 20 00 04 99 81 42 ...
T3334 003:596.969   CPU_WriteMem(4096 bytes @ 0x20202000)
T3334 003:609.108 - 12.270ms returns 0x1000
T3334 003:610.601 JLINK_WriteMemEx(0x20203000, 0x1000 Bytes, ..., Flags = 0x02000000)
T3334 003:610.627   Data:  10 60 C2 F2 21 00 01 68 40 F6 12 12 C4 F2 02 02 ...
T3334 003:610.662   CPU_WriteMem(4096 bytes @ 0x20203000)
T3334 003:622.761 - 12.198ms returns 0x1000
T3334 003:623.696 JLINK_WriteMemEx(0x20204000, 0x1000 Bytes, ..., Flags = 0x02000000)
T3334 003:623.721   Data:  06 92 07 98 00 28 01 D0 FF E7 0B E0 48 F2 68 40 ...
T3334 003:623.772   CPU_WriteMem(4096 bytes @ 0x20204000)
T3334 003:635.934 - 12.277ms returns 0x1000
T3334 003:636.550 JLINK_WriteMemEx(0x20205000, 0x1000 Bytes, ..., Flags = 0x02000000)
T3334 003:636.617   Data:  C2 F2 21 01 40 F2 19 32 00 F0 1A FE 04 98 00 28 ...
T3334 003:636.696   CPU_WriteMem(4096 bytes @ 0x20205000)
T3334 003:648.856 - 12.361ms returns 0x1000
T3334 003:649.592 JLINK_WriteMemEx(0x20206000, 0x1000 Bytes, ..., Flags = 0x02000000)
T3334 003:649.673   Data:  B4 EE 41 0A F1 EE 10 FA 05 DD FF E7 9D ED 1B 0A ...
T3334 003:649.772   CPU_WriteMem(4096 bytes @ 0x20206000)
T3334 003:661.909 - 12.347ms returns 0x1000
T3334 003:662.676 JLINK_WriteMemEx(0x20207000, 0x1000 Bytes, ..., Flags = 0x02000000)
T3334 003:662.740   Data:  48 F2 9E 71 C2 F2 21 01 4F F4 F2 72 FE F7 18 FE ...
T3334 003:662.795   CPU_WriteMem(4096 bytes @ 0x20207000)
T3334 003:674.791 - 12.146ms returns 0x1000
T3334 003:675.358 JLINK_WriteMemEx(0x20208000, 0x1000 Bytes, ..., Flags = 0x02000000)
T3334 003:675.384   Data:  71 E2 6B 98 00 68 69 90 6B 98 80 68 68 90 69 98 ...
T3334 003:675.426   CPU_WriteMem(4096 bytes @ 0x20208000)
T3334 003:687.526 - 12.210ms returns 0x1000
T3334 003:688.197 JLINK_WriteMemEx(0x20209000, 0x1000 Bytes, ..., Flags = 0x02000000)
T3334 003:688.226   Data:  0C 90 03 D0 FF E7 2E 98 0B 90 06 E0 3D 98 00 68 ...
T3334 003:688.263   CPU_WriteMem(4096 bytes @ 0x20209000)
T3334 003:700.301 - 12.127ms returns 0x1000
T3334 003:700.995 JLINK_WriteMemEx(0x2020A000, 0x1000 Bytes, ..., Flags = 0x02000000)
T3334 003:701.028   Data:  08 44 CD F8 84 0D FF E7 DD F8 8C 0C 01 30 CD F8 ...
T3334 003:701.060   CPU_WriteMem(4096 bytes @ 0x2020A000)
T3334 003:713.204 - 12.247ms returns 0x1000
T3334 003:714.615 JLINK_WriteMemEx(0x2020B000, 0x1000 Bytes, ..., Flags = 0x02000000)
T3334 003:714.651   Data:  88 19 CD F8 8C 09 DD F8 30 0B 00 FB 00 F0 DD F8 ...
T3334 003:714.690   CPU_WriteMem(4096 bytes @ 0x2020B000)
T3334 003:726.732 - 12.147ms returns 0x1000
T3334 003:727.317 JLINK_WriteMemEx(0x2020C000, 0x1000 Bytes, ..., Flags = 0x02000000)
T3334 003:727.342   Data:  98 05 01 30 CD F8 48 05 DD F8 4C 05 DD F8 48 15 ...
T3334 003:727.419   CPU_WriteMem(4096 bytes @ 0x2020C000)
T3334 003:739.574 - 12.287ms returns 0x1000
T3334 003:740.183 JLINK_WriteMemEx(0x2020D000, 0x1000 Bytes, ..., Flags = 0x02000000)
T3334 003:740.208   Data:  88 42 03 DA FF E7 74 98 0B 90 02 E0 73 98 0B 90 ...
T3334 003:740.242   CPU_WriteMem(4096 bytes @ 0x2020D000)
T3334 003:752.348 - 12.219ms returns 0x1000
T3334 003:753.209 JLINK_WriteMemEx(0x2020E000, 0x1000 Bytes, ..., Flags = 0x02000000)
T3334 003:753.248   Data:  C0 0A 9D ED 0D 1A 20 EE 01 0A F8 F7 8D FC 19 99 ...
T3334 003:753.317   CPU_WriteMem(4096 bytes @ 0x2020E000)
T3334 003:765.466 - 12.288ms returns 0x1000
T3334 003:766.137 JLINK_WriteMemEx(0x2020F000, 0x1000 Bytes, ..., Flags = 0x02000000)
T3334 003:766.161   Data:  80 BD 00 00 00 00 00 00 81 B0 00 90 00 98 00 68 ...
T3334 003:766.196   CPU_WriteMem(4096 bytes @ 0x2020F000)
T3334 003:778.389 - 12.322ms returns 0x1000
T3334 003:779.048 JLINK_WriteMemEx(0x20210000, 0x1000 Bytes, ..., Flags = 0x02000000)
T3334 003:779.074   Data:  47 F6 F9 41 C2 F2 20 01 81 67 00 98 44 F2 91 01 ...
T3334 003:779.109   CPU_WriteMem(4096 bytes @ 0x20210000)
T3334 003:791.222 - 12.206ms returns 0x1000
T3334 003:791.875 JLINK_WriteMemEx(0x20211000, 0x1000 Bytes, ..., Flags = 0x02000000)
T3334 003:791.906   Data:  DC 50 C2 F2 21 00 00 68 00 6D 00 28 0D D0 FF E7 ...
T3334 003:791.944   CPU_WriteMem(4096 bytes @ 0x20211000)
T3334 003:804.004 - 12.164ms returns 0x1000
T3334 003:805.039 JLINK_WriteMemEx(0x20212000, 0x1000 Bytes, ..., Flags = 0x02000000)
T3334 003:805.089   Data:  D1 71 48 43 11 99 90 FB F1 F0 12 99 90 FB F1 F0 ...
T3334 003:805.156   CPU_WriteMem(4096 bytes @ 0x20212000)
T3334 003:817.329 - 12.316ms returns 0x1000
T3334 003:817.907 JLINK_WriteMemEx(0x20213000, 0x1000 Bytes, ..., Flags = 0x02000000)
T3334 003:817.933   Data:  9F FC B7 EE C0 1A 9D ED 06 2B 22 EE 01 1B B7 EE ...
T3334 003:817.969   CPU_WriteMem(4096 bytes @ 0x20213000)
T3334 003:830.031 - 12.169ms returns 0x1000
T3334 003:830.694 JLINK_WriteMemEx(0x20214000, 0x1000 Bytes, ..., Flags = 0x02000000)
T3334 003:830.721   Data:  F2 F7 0E F9 00 99 08 43 00 90 02 98 00 28 07 D1 ...
T3334 003:830.756   CPU_WriteMem(4096 bytes @ 0x20214000)
T3334 003:842.793 - 12.130ms returns 0x1000
T3334 003:843.476 JLINK_WriteMemEx(0x20215000, 0x1000 Bytes, ..., Flags = 0x02000000)
T3334 003:843.505   Data:  B3 45 08 DC 00 2C A8 BF 9D ED 26 0B DE DA 07 E0 ...
T3334 003:843.549   CPU_WriteMem(4096 bytes @ 0x20215000)
T3334 003:855.596 - 12.157ms returns 0x1000
T3334 003:856.349 JLINK_WriteMemEx(0x20216000, 0x1000 Bytes, ..., Flags = 0x02000000)
T3334 003:856.378   Data:  09 F1 07 01 21 F0 07 02 F2 E8 02 C1 91 46 05 E0 ...
T3334 003:856.417   CPU_WriteMem(4096 bytes @ 0x20216000)
T3334 003:868.487 - 12.190ms returns 0x1000
T3334 003:869.217 JLINK_WriteMemEx(0x20217000, 0x1000 Bytes, ..., Flags = 0x02000000)
T3334 003:869.245   Data:  10 10 10 10 08 00 00 00 08 00 00 00 0A 00 00 00 ...
T3334 003:869.282   CPU_WriteMem(4096 bytes @ 0x20217000)
T3334 003:881.338 - 12.149ms returns 0x1000
T3334 003:881.975 JLINK_WriteMemEx(0x20218000, 0x0E98 Bytes, ..., Flags = 0x02000000)
T3334 003:882.016   Data:  6C 97 2E BF 2B 4C 2B BF 7C F3 27 BF C1 8D 24 BF ...
T3334 003:882.062   CPU_WriteMem(3736 bytes @ 0x20218000)
T3334 003:893.043 - 11.125ms returns 0xE98
T3334 003:945.818   JLINK_ReadMemEx(0x401F4490, 0x0004 Bytes, ..., Flags = 0x02000000)
T3334 003:945.880   CPU_ReadMem(4 bytes @ 0x401F4490)
T3334 003:946.200   Data:  00 94 00 00
T3334 003:946.252 - 0.443ms returns 0x04
T3334 003:946.363   JLINK_ReadMemEx(0x40080004, 0x0004 Bytes, ..., Flags = 0x02000000)
T3334 003:946.393   CPU_ReadMem(4 bytes @ 0x40080004)
T3334 003:946.666   Data:  9C A2 1B 12
T3334 003:946.698 - 0.362ms returns 0x04
T3334 003:946.827 JLINK_WriteMemEx(0x40080004, 0x0004 Bytes, ..., Flags = 0x02000000)
T3334 003:946.851   Data:  9C A2 1B 12
T3334 003:946.883   CPU_WriteMem(4 bytes @ 0x40080004)
T3334 003:947.152 - 0.341ms returns 0x04
T3334 003:947.186   JLINK_ReadMemEx(0x401F4480, 0x0004 Bytes, ..., Flags = 0x02000000)
T3334 003:947.215   CPU_ReadMem(4 bytes @ 0x401F4480)
T3334 003:947.533   Data:  00 00 00 00
T3334 003:947.566 - 0.388ms returns 0x04
T3334 003:989.952   JLINK_ReadMemEx(0x20200000, 0x0004 Bytes, ..., Flags = 0x02000000)
T3334 003:990.039   CPU_ReadMem(4 bytes @ 0x20200000)
T3334 003:990.530   Data:  00 20 00 20
T3334 003:990.624 - 0.706ms returns 0x04
T3334 003:990.959 JLINK_WriteReg(R13 (SP), 0x20002000)
T3334 003:991.086 - 0.158ms returns 0x00
T3334 003:991.134 JLINK_ReadReg(R0)
T3334 003:991.152 - 0.043ms returns 0x00000000
T3334 003:991.189 JLINK_ReadReg(R1)
T3334 003:991.206 - 0.025ms returns 0x00000000
T3334 003:991.226 JLINK_ReadReg(R2)
T3334 003:991.244 - 0.027ms returns 0x00000000
T3334 003:991.264 JLINK_ReadReg(R3)
T3334 003:991.281 - 0.024ms returns 0x00000000
T3334 003:991.300 JLINK_ReadReg(R4)
T3334 003:991.317 - 0.024ms returns 0x00000000
T3334 003:991.336 JLINK_ReadReg(R5)
T3334 003:991.353 - 0.025ms returns 0x00000000
T3334 003:991.372 JLINK_ReadReg(R6)
T3334 003:991.390 - 0.027ms returns 0x00000000
T3334 003:991.411 JLINK_ReadReg(R7)
T3334 003:991.428 - 0.025ms returns 0x00000000
T3334 003:991.447 JLINK_ReadReg(R8)
T3334 003:991.463 - 0.029ms returns 0x00000000
T3334 003:991.491 JLINK_ReadReg(R9)
T3334 003:991.507 - 0.024ms returns 0x00000000
T3334 003:991.526 JLINK_ReadReg(R10)
T3334 003:991.542 - 0.024ms returns 0x00000000
T3334 003:991.561 JLINK_ReadReg(R11)
T3334 003:991.577 - 0.024ms returns 0x00000000
T3334 003:991.597 JLINK_ReadReg(R12)
T3334 003:991.616 - 0.031ms returns 0x00000000
T3334 003:991.647 JLINK_ReadReg(R13 (SP))
T3334 003:991.671 - 0.036ms returns 0x20002000
T3334 003:991.698 JLINK_ReadReg(R14)
T3334 003:991.717 - 0.028ms returns 0xFFFFFFFF
T3334 003:991.737 JLINK_ReadReg(R15 (PC))
T3334 003:991.754 - 0.024ms returns 0x00202090
T3334 003:991.773 JLINK_ReadReg(XPSR)
T3334 003:991.789 - 0.024ms returns 0x01000000
T3334 003:991.809 JLINK_ReadReg(MSP)
T3334 003:991.825 - 0.024ms returns 0x20002000
T3334 003:991.844 JLINK_ReadReg(PSP)
T3334 003:991.860 - 0.024ms returns 0x00000000
T3334 003:991.879 JLINK_ReadReg(CFBP)
T3334 003:991.895 - 0.024ms returns 0x00000000
T3334 003:991.915 JLINK_ReadReg(FPSCR)
T3334 003:991.931 - 0.024ms returns 0x00000000
T3334 003:991.950 JLINK_ReadReg(FPS0)
T3334 003:991.966 - 0.024ms returns 0x00000000
T3334 003:991.985 JLINK_ReadReg(FPS1)
T3334 003:992.001 - 0.025ms returns 0x00000000
T3334 003:992.021 JLINK_ReadReg(FPS2)
T3334 003:992.037 - 0.026ms returns 0x00000000
T3334 003:992.062 JLINK_ReadReg(FPS3)
T3334 003:992.082 - 0.028ms returns 0x00000000
T3334 003:992.101 JLINK_ReadReg(FPS4)
T3334 003:992.117 - 0.024ms returns 0x00000000
T3334 003:992.139 JLINK_ReadReg(FPS5)
T3334 003:992.156 - 0.027ms returns 0x00000000
T3334 003:992.181 JLINK_ReadReg(FPS6)
T3334 003:992.203 - 0.032ms returns 0x00000000
T3334 003:992.227 JLINK_ReadReg(FPS7)
T3334 003:992.249 - 0.031ms returns 0x00000000
T3334 003:992.273 JLINK_ReadReg(FPS8)
T3334 003:992.295 - 0.032ms returns 0x00000000
T3334 003:992.319 JLINK_ReadReg(FPS9)
T3334 003:992.341 - 0.032ms returns 0x00000000
T3334 003:992.367 JLINK_ReadReg(FPS10)
T3334 003:992.388 - 0.032ms returns 0x00000000
T3334 003:992.413 JLINK_ReadReg(FPS11)
T3334 003:992.436 - 0.033ms returns 0x00000000
T3334 003:992.461 JLINK_ReadReg(FPS12)
T3334 003:992.486 - 0.037ms returns 0x00000000
T3334 003:992.516 JLINK_ReadReg(FPS13)
T3334 003:992.541 - 0.038ms returns 0x00000000
T3334 003:992.571 JLINK_ReadReg(FPS14)
T3334 003:992.596 - 0.040ms returns 0x00000000
T3334 003:992.630 JLINK_ReadReg(FPS15)
T3334 003:992.656 - 0.038ms returns 0xFFFFFFFF
T3334 003:992.687 JLINK_ReadReg(FPS16)
T3334 003:992.707 - 0.027ms returns 0x00000000
T3334 003:992.726 JLINK_ReadReg(FPS17)
T3334 003:992.742 - 0.025ms returns 0x00000000
T3334 003:992.762 JLINK_ReadReg(FPS18)
T3334 003:992.778 - 0.024ms returns 0x00000000
T3334 003:992.797 JLINK_ReadReg(FPS19)
T3334 003:992.813 - 0.024ms returns 0x00000000
T3334 003:992.833 JLINK_ReadReg(FPS20)
T3334 003:992.849 - 0.024ms returns 0x00000000
T3334 003:992.868 JLINK_ReadReg(FPS21)
T3334 003:992.884 - 0.024ms returns 0x00000000
T3334 003:992.903 JLINK_ReadReg(FPS22)
T3334 003:992.919 - 0.024ms returns 0x00000000
T3334 003:992.938 JLINK_ReadReg(FPS23)
T3334 003:992.954 - 0.024ms returns 0x00000000
T3334 003:992.973 JLINK_ReadReg(FPS24)
T3334 003:992.989 - 0.024ms returns 0x00000000
T3334 003:993.008 JLINK_ReadReg(FPS25)
T3334 003:993.024 - 0.024ms returns 0x00000000
T3334 003:993.043 JLINK_ReadReg(FPS26)
T3334 003:993.059 - 0.024ms returns 0x00000000
T3334 003:993.078 JLINK_ReadReg(FPS27)
T3334 003:993.094 - 0.023ms returns 0x00000000
T3334 003:993.113 JLINK_ReadReg(FPS28)
T3334 003:993.129 - 0.024ms returns 0x00000000
T3334 003:993.148 JLINK_ReadReg(FPS29)
T3334 003:993.164 - 0.024ms returns 0x00000000
T3334 003:993.183 JLINK_ReadReg(FPS30)
T3334 003:993.199 - 0.024ms returns 0x00000000
T3334 003:993.218 JLINK_ReadReg(FPS31)
T3334 003:993.234 - 0.024ms returns 0xFFFFFFFF
T3334 003:993.256   JLINK_ReadMemEx(0x20200004, 0x0004 Bytes, ..., Flags = 0x02000000)
T3334 003:993.286   CPU_ReadMem(4 bytes @ 0x20200004)
T3334 003:993.586   Data:  1D 07 20 20
T3334 003:993.634 - 0.406ms returns 0x04
T3334 003:993.686 JLINK_WriteReg(R15 (PC), 0x2020071C)
T3334 003:993.709 - 0.030ms returns 0x00
T3334 003:993.749 JLINK_ReadReg(R0)
T3334 003:993.765 - 0.024ms returns 0x00000000
T3334 003:993.784 JLINK_ReadReg(R1)
T3334 003:993.800 - 0.023ms returns 0x00000000
T3334 003:993.818 JLINK_ReadReg(R2)
T3334 003:993.834 - 0.023ms returns 0x00000000
T3334 003:993.852 JLINK_ReadReg(R3)
T3334 003:993.868 - 0.023ms returns 0x00000000
T3334 003:993.886 JLINK_ReadReg(R4)
T3334 003:993.904 - 0.025ms returns 0x00000000
T3334 003:993.922 JLINK_ReadReg(R5)
T3334 003:993.937 - 0.023ms returns 0x00000000
T3334 003:993.956 JLINK_ReadReg(R6)
T3334 003:993.971 - 0.023ms returns 0x00000000
T3334 003:993.990 JLINK_ReadReg(R7)
T3334 003:994.005 - 0.023ms returns 0x00000000
T3334 003:994.023 JLINK_ReadReg(R8)
T3334 003:994.039 - 0.023ms returns 0x00000000
T3334 003:994.057 JLINK_ReadReg(R9)
T3334 003:994.073 - 0.023ms returns 0x00000000
T3334 003:994.091 JLINK_ReadReg(R10)
T3334 003:994.106 - 0.023ms returns 0x00000000
T3334 003:994.125 JLINK_ReadReg(R11)
T3334 003:994.140 - 0.023ms returns 0x00000000
T3334 003:994.159 JLINK_ReadReg(R12)
T3334 003:994.176 - 0.024ms returns 0x00000000
T3334 003:994.194 JLINK_ReadReg(R13 (SP))
T3334 003:994.210 - 0.023ms returns 0x20002000
T3334 003:994.228 JLINK_ReadReg(R14)
T3334 003:994.244 - 0.023ms returns 0xFFFFFFFF
T3334 003:994.262 JLINK_ReadReg(R15 (PC))
T3334 003:994.277 - 0.023ms returns 0x2020071C
T3334 003:994.296 JLINK_ReadReg(XPSR)
T3334 003:994.311 - 0.023ms returns 0x01000000
T3334 003:994.330 JLINK_ReadReg(MSP)
T3334 003:994.345 - 0.023ms returns 0x20002000
T3334 003:994.363 JLINK_ReadReg(PSP)
T3334 003:994.379 - 0.023ms returns 0x00000000
T3334 003:994.397 JLINK_ReadReg(CFBP)
T3334 003:994.413 - 0.023ms returns 0x00000000
T3334 003:994.431 JLINK_ReadReg(FPSCR)
T3334 003:994.448 - 0.024ms returns 0x00000000
T3334 003:994.466 JLINK_ReadReg(FPS0)
T3334 003:994.481 - 0.023ms returns 0x00000000
T3334 003:994.500 JLINK_ReadReg(FPS1)
T3334 003:994.515 - 0.023ms returns 0x00000000
T3334 003:994.534 JLINK_ReadReg(FPS2)
T3334 003:994.549 - 0.023ms returns 0x00000000
T3334 003:994.567 JLINK_ReadReg(FPS3)
T3334 003:994.583 - 0.023ms returns 0x00000000
T3334 003:994.601 JLINK_ReadReg(FPS4)
T3334 003:994.657 - 0.066ms returns 0x00000000
T3334 003:994.682 JLINK_ReadReg(FPS5)
T3334 003:994.699 - 0.026ms returns 0x00000000
T3334 003:994.727 JLINK_ReadReg(FPS6)
T3334 003:994.750 - 0.034ms returns 0x00000000
T3334 003:994.780 JLINK_ReadReg(FPS7)
T3334 003:994.801 - 0.028ms returns 0x00000000
T3334 003:994.821 JLINK_ReadReg(FPS8)
T3334 003:994.840 - 0.026ms returns 0x00000000
T3334 003:994.859 JLINK_ReadReg(FPS9)
T3334 003:994.875 - 0.024ms returns 0x00000000
T3334 003:994.896 JLINK_ReadReg(FPS10)
T3334 003:994.923 - 0.036ms returns 0x00000000
T3334 003:994.944 JLINK_ReadReg(FPS11)
T3334 003:994.960 - 0.024ms returns 0x00000000
T3334 003:994.979 JLINK_ReadReg(FPS12)
T3334 003:994.995 - 0.024ms returns 0x00000000
T3334 003:995.015 JLINK_ReadReg(FPS13)
T3334 003:995.031 - 0.024ms returns 0x00000000
T3334 003:995.050 JLINK_ReadReg(FPS14)
T3334 003:995.066 - 0.024ms returns 0x00000000
T3334 003:995.086 JLINK_ReadReg(FPS15)
T3334 003:995.102 - 0.024ms returns 0xFFFFFFFF
T3334 003:995.121 JLINK_ReadReg(FPS16)
T3334 003:995.137 - 0.023ms returns 0x00000000
T3334 003:995.155 JLINK_ReadReg(FPS17)
T3334 003:995.172 - 0.023ms returns 0x00000000
T3334 003:995.190 JLINK_ReadReg(FPS18)
T3334 003:995.206 - 0.024ms returns 0x00000000
T3334 003:995.225 JLINK_ReadReg(FPS19)
T3334 003:995.244 - 0.026ms returns 0x00000000
T3334 003:995.263 JLINK_ReadReg(FPS20)
T3334 003:995.278 - 0.023ms returns 0x00000000
T3334 003:995.297 JLINK_ReadReg(FPS21)
T3334 003:995.314 - 0.024ms returns 0x00000000
T3334 003:995.332 JLINK_ReadReg(FPS22)
T3334 003:995.348 - 0.024ms returns 0x00000000
T3334 003:995.369 JLINK_ReadReg(FPS23)
T3334 003:995.385 - 0.024ms returns 0x00000000
T3334 003:995.403 JLINK_ReadReg(FPS24)
T3334 003:995.420 - 0.024ms returns 0x00000000
T3334 003:995.440 JLINK_ReadReg(FPS25)
T3334 003:995.457 - 0.025ms returns 0x00000000
T3334 003:995.476 JLINK_ReadReg(FPS26)
T3334 003:995.493 - 0.024ms returns 0x00000000
T3334 003:995.511 JLINK_ReadReg(FPS27)
T3334 003:995.527 - 0.024ms returns 0x00000000
T3334 003:995.546 JLINK_ReadReg(FPS28)
T3334 003:995.562 - 0.024ms returns 0x00000000
T3334 003:995.581 JLINK_ReadReg(FPS29)
T3334 003:995.599 - 0.030ms returns 0x00000000
T3334 003:995.630 JLINK_ReadReg(FPS30)
T3334 003:995.650 - 0.027ms returns 0x00000000
T3334 003:995.670 JLINK_ReadReg(FPS31)
T3334 003:995.686 - 0.024ms returns 0xFFFFFFFF
T3334 003:995.706 JLINK_WriteMemEx(0xE000ED08, 0x0004 Bytes, ..., Flags = 0x02000000)
T3334 003:995.723   Data:  00 00 20 20
T3334 003:995.753   CPU_WriteMem(4 bytes @ 0xE000ED08)
T3334 003:996.044 - 0.370ms returns 0x04
T3334 004:996.941   JLINK_ReadMemEx(0x20218DDC, 0x0004 Bytes, ..., Flags = 0x02000000)
T3334 004:997.001   CPU_ReadMem(4 bytes @ 0x20218DDC)
T3334 004:997.299   Data:  AC 8E 21 20
T3334 004:997.372 - 0.446ms returns 0x04
T3334 004:997.548   JLINK_ReadMemEx(0x20218DDC, 0x0004 Bytes, ..., Flags = 0x02000000)
T3334 004:997.596   CPU_ReadMem(4 bytes @ 0x20218DDC)
T3334 004:997.877   Data:  AC 8E 21 20
T3334 004:997.905 - 0.366ms returns 0x04
T3334 004:997.946   JLINK_ReadMemEx(0x20218DDC, 0x0004 Bytes, ..., Flags = 0x02000000)
T3334 004:997.974   CPU_ReadMem(4 bytes @ 0x20218DDC)
T3334 004:998.221   Data:  AC 8E 21 20
T3334 004:998.249 - 0.311ms returns 0x04
T3334 005:009.485   JLINK_ReadMemEx(0x20218DE0, 0x0004 Bytes, ..., Flags = 0x02000000)
T3334 005:009.549   CPU_ReadMem(4 bytes @ 0x20218DE0)
T3334 005:009.796   Data:  00 00 00 00
T3334 005:009.826 - 0.349ms returns 0x04
